(1506957954.157154) can0 46C#10000066C0000000
(1506957954.179103) can0 46C#2007446973745075
(1506957954.201119) can0 46C#2162000000562028
(1506957954.223101) can0 46C#2231323030292031
(1506957954.245084) can0 46C#2331352031313520
(1506957954.267079) can0 46C#2431313720313135
(1506957954.289067) can0 46C#2520313135203132
(1506957954.311061) can0 46C#2631203132312031
(1506957954.333103) can0 46C#2731392031313020
(1506957954.355124) can0 46C#2831313020313131
(1506957954.377089) can0 46C#2920313131203130
(1506957954.399062) can0 46C#2A37203130392031
(1506957954.421111) can0 46C#2B30392039352031
(1506957954.443052) can0 46C#2C30372031303720
(1506957954.465069) can0 46C#2D31303920313039
(1506957957.237653) can0 46C#10000067C0000000
(1506957957.259626) can0 46C#2007446973745075
(1506957957.281642) can0 46C#2162000000572028
(1506957957.303625) can0 46C#2231323230292031
(1506957957.325667) can0 46C#2331322031303620
(1506957957.347667) can0 46C#2431303620313136
(1506957957.369662) can0 46C#2520313136203131
(1506957957.391606) can0 46C#2633203131312031
(1506957957.413623) can0 46C#2731312031303720
(1506957957.435624) can0 46C#2831303720313036
(1506957957.457591) can0 46C#2920313036203130
(1506957957.479583) can0 46C#2A37203130372031
(1506957957.501601) can0 46C#2B30372031313220
(1506957957.523642) can0 46C#2C31303920313039
(1506957957.545616) can0 46C#2D20313131203131
(1506957957.567590) can0 46C#2E31393600000000
(1506957960.067242) can0 46C#10000053C0000000
(1506957960.089223) can0 46C#2007446973745075
(1506957960.111201) can0 46C#2162000000432028
(1506957960.133181) can0 46C#2231323430292034
(1506957960.155231) can0 46C#2336203436203435
(1506957960.177183) can0 46C#2420343520343420
(1506957960.199177) can0 46C#2534342034332034
(1506957960.221160) can0 46C#2632203432203432
(1506957960.243194) can0 46C#2720343220343220
(1506957960.265195) can0 46C#2834322034322034
(1506957960.287210) can0 46C#2933203433203433
(1506957960.309231) can0 46C#2A20343320343420
(1506957960.331184) can0 46C#2B34342031313220
(1506957963.166697) can0 46C#10000061C0000000
(1506957963.188678) can0 46C#2007446973745075
(1506957963.210699) can0 46C#2162000000512028
(1506957963.232672) can0 46C#2231323630292034
(1506957963.254698) can0 46C#2335203232302032
(1506957963.276673) can0 46C#2432302032323220
(1506957963.298666) can0 46C#2532323420323234
(1506957963.320695) can0 46C#2620333430302031
(1506957963.342646) can0 46C#2730382031313420
(1506957963.364646) can0 46C#2831313420313035
(1506957963.386645) can0 46C#2920313035203130
(1506957963.408669) can0 46C#2A32203130322038
(1506957963.430659) can0 46C#2B38203836203836
(1506957963.452688) can0 46C#2C20383520383420
(1506957963.474686) can0 46C#2D38343131203131
(1506957966.289196) can0 46C#10000057C0000000
(1506957966.311146) can0 46C#2007446973745075
(1506957966.333150) can0 46C#2162000000472028
(1506957966.355158) can0 46C#2231323830292031
(1506957966.377154) can0 46C#2331322031313220
(1506957966.399211) can0 46C#2437392037392037
(1506957966.421192) can0 46C#2538203738203738
(1506957966.443176) can0 46C#2620373820373820
(1506957966.465132) can0 46C#2737382038312038
(1506957966.487129) can0 46C#2831203739203739
(1506957966.509116) can0 46C#2920383120383120
(1506957966.531114) can0 46C#2A38322038342038
(1506957966.553116) can0 46C#2B34203334303036
(1506957972.622097) can0 46C#10000077C0000000
(1506957972.644046) can0 46C#2007446973745075
(1506957972.666136) can0 46C#2162000000672028
(1506957972.688083) can0 46C#2231333030292033
(1506957972.710087) can0 46C#2334303020333430
(1506957972.732069) can0 46C#2430203334303020
(1506957972.754106) can0 46C#2533343030203334
(1506957972.776055) can0 46C#2630302033343030
(1506957972.798032) can0 46C#2720333430302033
(1506957972.820036) can0 46C#2834303020333430
(1506957972.842010) can0 46C#2930203433352033
(1506957972.864020) can0 46C#2A34303020333430
(1506957972.886062) can0 46C#2B30203334303020
(1506957972.908071) can0 46C#2C33343030203136
(1506957972.930065) can0 46C#2D37203136372033
(1506957972.952038) can0 46C#2E34303020333430
(1506957972.974037) can0 46C#2F30203131382033
(1506957972.996036) can0 46C#2034303000000000
(1506957976.167581) can0 46C#10000068C0000000
(1506957976.189514) can0 46C#2007446973745075
(1506957976.211496) can0 46C#2162000000582028
(1506957976.233468) can0 46C#2231333230292031
(1506957976.255515) can0 46C#2331352031313520
(1506957976.277504) can0 46C#2431313520313135
(1506957976.299490) can0 46C#2520313134203131
(1506957976.321485) can0 46C#2634203131342031
(1506957976.343462) can0 46C#2731342031313320
(1506957976.365499) can0 46C#2831313320313132
(1506957976.387506) can0 46C#2920313132203131
(1506957976.409474) can0 46C#2A35203334303020
(1506957976.431458) can0 46C#2B31313620313136
(1506957976.453436) can0 46C#2C20313137203131
(1506957976.475530) can0 46C#2D37203131332031
(1506957976.497487) can0 46C#2E30343020333430
(1506957979.207137) can0 46C#1000005EC0000000
(1506957979.229086) can0 46C#2007446973745075
(1506957979.251077) can0 46C#21620000004E2028
(1506957979.273041) can0 46C#2231333430292031
(1506957979.295056) can0 46C#2331322031313220
(1506957979.317024) can0 46C#2431303720313037
(1506957979.339022) can0 46C#2520313130203131
(1506957979.361012) can0 46C#2630203131302031
(1506957979.383049) can0 46C#2731302031313020
(1506957979.405049) can0 46C#2833343030203438
(1506957979.427041) can0 46C#2920343820343820
(1506957979.449033) can0 46C#2A34372034372034
(1506957979.471087) can0 46C#2B38203437203437
(1506957979.493038) can0 46C#2C20343620343631
