(1506957894.897375) can0 46C#10000066C0000000
(1506957894.919311) can0 46C#2007446973745075
(1506957894.941307) can0 46C#2162000000562028
(1506957894.963289) can0 46C#2238303029203234
(1506957894.985341) can0 46C#2331203234312032
(1506957895.007330) can0 46C#2434322032343220
(1506957895.029263) can0 46C#2532343220323432
(1506957895.051298) can0 46C#2620323432203234
(1506957895.073284) can0 46C#2732203234332032
(1506957895.095279) can0 46C#2834332032343220
(1506957895.117277) can0 46C#2932343220323432
(1506957895.139251) can0 46C#2A20323434203234
(1506957895.161260) can0 46C#2B34203234332032
(1506957895.183247) can0 46C#2C34342032343420
(1506957895.205231) can0 46C#2D32343320323433
(1506957897.935853) can0 46C#10000066C0000000
(1506957897.957852) can0 46C#2007446973745075
(1506957897.979777) can0 46C#2162000000562028
(1506957898.001820) can0 46C#2238323029203234
(1506957898.023799) can0 46C#2332203234312032
(1506957898.045805) can0 46C#2434312032343120
(1506957898.067795) can0 46C#2532343120323431
(1506957898.089763) can0 46C#2620323431203234
(1506957898.111764) can0 46C#2731203234312032
(1506957898.133801) can0 46C#2834312032343020
(1506957898.155781) can0 46C#2932333720323334
(1506957898.177752) can0 46C#2A20323334203233
(1506957898.199731) can0 46C#2B30203233302032
(1506957898.221771) can0 46C#2C32352032323220
(1506957898.243755) can0 46C#2D32323220323137
(1506957900.932388) can0 46C#10000066C0000000
(1506957900.954392) can0 46C#2007446973745075
(1506957900.976371) can0 46C#2162000000562028
(1506957900.998367) can0 46C#2238343029203231
(1506957901.020349) can0 46C#2332203231322032
(1506957901.042353) can0 46C#2431312032313120
(1506957901.064379) can0 46C#2532313020323130
(1506957901.086381) can0 46C#2620323038203230
(1506957901.108343) can0 46C#2736203230362032
(1506957901.130337) can0 46C#2830362032303520
(1506957901.152313) can0 46C#2932303520323031
(1506957901.174360) can0 46C#2A20323031203139
(1506957901.196331) can0 46C#2B39203139362031
(1506957901.218330) can0 46C#2C39362031393120
(1506957901.240322) can0 46C#2D31383620313836
(1506957903.907910) can0 46C#10000066C0000000
(1506957903.929830) can0 46C#2007446973745075
(1506957903.951890) can0 46C#2162000000562028
(1506957903.973897) can0 46C#2238363029203137
(1506957903.995858) can0 46C#2334203137342031
(1506957904.017824) can0 46C#2437322031373220
(1506957904.039790) can0 46C#2531373020313637
(1506957904.061806) can0 46C#2620313637203136
(1506957904.083797) can0 46C#2737203135392031
(1506957904.105791) can0 46C#2835392031353520
(1506957904.127819) can0 46C#2931353520313531
(1506957904.149848) can0 46C#2A20313531203134
(1506957904.171839) can0 46C#2B37203134362031
(1506957904.193784) can0 46C#2C34362031343520
(1506957904.215795) can0 46C#2D31343220313432
(1506957906.820313) can0 46C#10000061C0000000
(1506957906.842288) can0 46C#2007446973745075
(1506957906.864319) can0 46C#2162000000512028
(1506957906.886291) can0 46C#2238383029203132
(1506957906.908292) can0 46C#2335203132352031
(1506957906.930263) can0 46C#2432322031323220
(1506957906.952304) can0 46C#2531313920313134
(1506957906.974285) can0 46C#2620313134203131
(1506957906.996251) can0 46C#2732203130392031
(1506957907.018258) can0 46C#2830392031303720
(1506957907.040278) can0 46C#2931303720313033
(1506957907.062263) can0 46C#2A20313033203130
(1506957907.084273) can0 46C#2B30203938203938
(1506957907.106253) can0 46C#2C20393320393020
(1506957907.128252) can0 46C#2D39303220313432
(1506957909.669861) can0 46C#10000054C0000000
(1506957909.691836) can0 46C#2007446973745075
(1506957909.713816) can0 46C#2162000000442028
(1506957909.735803) can0 46C#2239303029203131
(1506957909.757871) can0 46C#2332203131322038
(1506957909.779830) can0 46C#2431203831203738
(1506957909.801812) can0 46C#2520373820373820
(1506957909.823812) can0 46C#2637382037382037
(1506957909.845843) can0 46C#2731203731203639
(1506957909.867819) can0 46C#2820363620363620
(1506957909.889799) can0 46C#2936332036332036
(1506957909.911796) can0 46C#2A30203630203538
(1506957909.933782) can0 46C#2B20353638203938
(1506957912.517401) can0 46C#10000054C0000000
(1506957912.539351) can0 46C#2007446973745075
(1506957912.561372) can0 46C#2162000000442028
(1506957912.583359) can0 46C#2239323029203437
(1506957912.605353) can0 46C#2320343820343820
(1506957912.627351) can0 46C#2434352034352034
(1506957912.649406) can0 46C#2532203430203430
(1506957912.671364) can0 46C#2620343020343020
(1506957912.693356) can0 46C#2737382037382033
(1506957912.715328) can0 46C#2835203136302031
(1506957912.737319) can0 46C#2936302033302032
(1506957912.759323) can0 46C#2A39203239203236
(1506957912.781334) can0 46C#2B20323638203938
(1506957915.259975) can0 46C#10000049C0000000
(1506957915.281916) can0 46C#2007446973745075
(1506957915.304000) can0 46C#2162000000392028
(1506957915.325970) can0 46C#2239343029203231
(1506957915.347921) can0 46C#2320323120323220
(1506957915.369939) can0 46C#2432322032312032
(1506957915.391905) can0 46C#2531203231203231
(1506957915.413906) can0 46C#2620313820313320
(1506957915.435906) can0 46C#2731332038203820
(1506957915.457925) can0 46C#2835203520352033
(1506957915.479931) can0 46C#2920332034203432
(1506957917.958586) can0 46C#1000003EC0000000
(1506957917.980543) can0 46C#2007446973745075
(1506957918.002534) can0 46C#21620000002E2028
(1506957918.024533) can0 46C#2239363029203420
(1506957918.046591) can0 46C#2334203320332033
(1506957918.068540) can0 46C#2420332033203320
(1506957918.090534) can0 46C#2533203320332034
(1506957918.112534) can0 46C#2620342033203320
(1506957918.134508) can0 46C#2733203420342034
(1506957918.156516) can0 46C#2820343520352033
(1506957920.656150) can0 46C#10000042C0000000
(1506957920.678150) can0 46C#2007446973745075
(1506957920.700104) can0 46C#2162000000322028
(1506957920.722091) can0 46C#2239383029203820
(1506957920.744077) can0 46C#2338203920392031
(1506957920.766064) can0 46C#2431203131203131
(1506957920.788096) can0 46C#2520313120392039
(1506957920.810068) can0 46C#2620362036203520
(1506957920.832120) can0 46C#2735203420342034
(1506957920.854081) can0 46C#2820342034203433
(1506957923.395583) can0 46C#1000004DC0000000
(1506957923.417551) can0 46C#2007446973745075
(1506957923.439526) can0 46C#21620000003D2028
(1506957923.461512) can0 46C#2231303030292033
(1506957923.483479) can0 46C#2320352035203720
(1506957923.505530) can0 46C#2437203920313220
(1506957923.527512) can0 46C#2531322031352031
(1506957923.549502) can0 46C#2635203138203138
(1506957923.571504) can0 46C#2720323020323020
(1506957923.593468) can0 46C#2832312032312032
(1506957923.615472) can0 46C#2933203238203238
(1506957923.637454) can0 46C#2A20333339203236
(1506957926.200056) can0 46C#10000053C0000000
(1506957926.222002) can0 46C#2007446973745075
(1506957926.244013) can0 46C#2162000000432028
(1506957926.266030) can0 46C#2231303230292033
(1506957926.288029) can0 46C#2339203435203435
(1506957926.310059) can0 46C#2420343820353220
(1506957926.332026) can0 46C#2535322035372035
(1506957926.354004) can0 46C#2637203634203634
(1506957926.375971) can0 46C#2720373120373120
(1506957926.398029) can0 46C#2837392037392038
(1506957926.420006) can0 46C#2935203839203839
(1506957926.441973) can0 46C#2A20393220393420
(1506957926.463952) can0 46C#2B39343638203938
(1506957929.404406) can0 46C#10000068C0000000
(1506957929.426398) can0 46C#2007446973745075
(1506957929.448381) can0 46C#2162000000582028
(1506957929.470374) can0 46C#2231303430292031
(1506957929.492352) can0 46C#2330322031303220
(1506957929.514353) can0 46C#2431303820313038
(1506957929.536324) can0 46C#2520313132203131
(1506957929.558330) can0 46C#2632203131362031
(1506957929.580326) can0 46C#2731362031323120
(1506957929.602299) can0 46C#2831323720313237
(1506957929.624339) can0 46C#2920313331203133
(1506957929.646341) can0 46C#2A37203133372031
(1506957929.668328) can0 46C#2B34352031343520
(1506957929.690358) can0 46C#2C31343920333430
(1506957929.712323) can0 46C#2D30203136302031
(1506957929.734310) can0 46C#2E36300000000000
(1506957932.569827) can0 46C#10000068C0000000
(1506957932.591850) can0 46C#2007446973745075
(1506957932.613842) can0 46C#2162000000582028
(1506957932.635819) can0 46C#2231303630292031
(1506957932.657790) can0 46C#2336392031363920
(1506957932.679797) can0 46C#2431373320313733
(1506957932.701774) can0 46C#2520313735203334
(1506957932.723773) can0 46C#2630302031383520
(1506957932.745774) can0 46C#2731383520313930
(1506957932.767758) can0 46C#2820313932203139
(1506957932.789755) can0 46C#2932203139352031
(1506957932.811790) can0 46C#2A39392031393920
