(1506958004.667911) can0 46C#10000053C0000000
(1506958004.689837) can0 46C#2007446973745075
(1506958004.711843) can0 46C#2162000000432028
(1506958004.733880) can0 46C#2231353230292033
(1506958004.755869) can0 46C#2338203338203338
(1506958004.777865) can0 46C#2420333820333820
(1506958004.799889) can0 46C#2533382033382033
(1506958004.821885) can0 46C#2638203336203336
(1506958004.843881) can0 46C#2720333820333820
(1506958004.865838) can0 46C#2833382033382033
(1506958004.887829) can0 46C#2938203338203338
(1506958004.909806) can0 46C#2A20333820333820
(1506958004.931810) can0 46C#2B33383437203437
(1506958007.452386) can0 46C#10000053C0000000
(1506958007.474359) can0 46C#2007446973745075
(1506958007.496378) can0 46C#2162000000432028
(1506958007.518350) can0 46C#2231353430292033
(1506958007.540390) can0 46C#2338203338203338
(1506958007.562373) can0 46C#2420333820333820
(1506958007.584321) can0 46C#2533382033362033
(1506958007.606331) can0 46C#2636203336203336
(1506958007.628375) can0 46C#2720333820333820
(1506958007.650309) can0 46C#2833382033382033
(1506958007.672295) can0 46C#2938203338203338
(1506958007.694328) can0 46C#2A20333820333820
(1506958007.716318) can0 46C#2B33383437203437
(1506958010.236940) can0 46C#10000053C0000000
(1506958010.258879) can0 46C#2007446973745075
(1506958010.280880) can0 46C#2162000000432028
(1506958010.302860) can0 46C#2231353630292033
(1506958010.324890) can0 46C#2335203335203338
(1506958010.346902) can0 46C#2420333820333820
(1506958010.368856) can0 46C#2533382033382033
(1506958010.390837) can0 46C#2638203338203338
(1506958010.412827) can0 46C#2720333820333820
(1506958010.434845) can0 46C#2833382033382033
(1506958010.456842) can0 46C#2938203338203338
(1506958010.478812) can0 46C#2A20333820333820
(1506958010.500843) can0 46C#2B33383437203437
(1506958013.042458) can0 46C#10000053C0000000
(1506958013.064413) can0 46C#2007446973745075
(1506958013.086408) can0 46C#2162000000432028
(1506958013.108423) can0 46C#2231353830292033
(1506958013.130404) can0 46C#2336203336203338
(1506958013.152369) can0 46C#2420333820333820
(1506958013.174405) can0 46C#2533382033382033
(1506958013.196401) can0 46C#2638203338203338
(1506958013.218386) can0 46C#2720333820333820
(1506958013.240374) can0 46C#2833382033382033
(1506958013.262349) can0 46C#2938203338203338
(1506958013.284352) can0 46C#2A20333820333820
(1506958013.306344) can0 46C#2B33383437203437
(1506958015.826924) can0 46C#10000053C0000000
(1506958015.848897) can0 46C#2007446973745075
(1506958015.870899) can0 46C#2162000000432028
(1506958015.892890) can0 46C#2231363030292033
(1506958015.914919) can0 46C#2335203338203338
(1506958015.936934) can0 46C#2420333820333620
(1506958015.958941) can0 46C#2533362033382033
(1506958015.980901) can0 46C#2638203338203338
(1506958016.002880) can0 46C#2720333820333820
(1506958016.024881) can0 46C#2833362033362033
(1506958016.046854) can0 46C#2936203338203338
(1506958016.068848) can0 46C#2A20333620333820
(1506958016.090839) can0 46C#2B33383437203437
(1506958018.653444) can0 46C#10000053C0000000
(1506958018.675398) can0 46C#2007446973745075
(1506958018.697393) can0 46C#2162000000432028
(1506958018.719367) can0 46C#2231363230292033
(1506958018.741371) can0 46C#2338203338203336
(1506958018.763418) can0 46C#2420333620333620
(1506958018.785368) can0 46C#2533362033362033
(1506958018.807362) can0 46C#2636203336203336
(1506958018.829333) can0 46C#2720333820333620
(1506958018.851387) can0 46C#2833362033362033
(1506958018.873375) can0 46C#2938203338203338
(1506958018.895337) can0 46C#2A20333820333620
(1506958018.917337) can0 46C#2B33363437203437
(1506958021.458959) can0 46C#10000053C0000000
(1506958021.480977) can0 46C#2007446973745075
(1506958021.502962) can0 46C#2162000000432028
(1506958021.524913) can0 46C#2231363430292033
(1506958021.546908) can0 46C#2336203336203336
(1506958021.568901) can0 46C#2420333620333820
(1506958021.590909) can0 46C#2533382033382033
(1506958021.612908) can0 46C#2638203338203336
(1506958021.634916) can0 46C#2720333820333820
(1506958021.656972) can0 46C#2833382033382033
(1506958021.678931) can0 46C#2938203338203338
(1506958021.700916) can0 46C#2A20333820333820
(1506958021.722908) can0 46C#2B33363437203437
(1506958024.243534) can0 46C#10000053C0000000
(1506958024.265507) can0 46C#2007446973745075
(1506958024.287507) can0 46C#2162000000432028
(1506958024.309477) can0 46C#2231363630292033
(1506958024.331474) can0 46C#2335203336203336
(1506958024.353532) can0 46C#2420333820333820
(1506958024.375527) can0 46C#2533382033382033
(1506958024.397493) can0 46C#2638203338203338
(1506958024.419474) can0 46C#2720333820333820
(1506958024.441527) can0 46C#2833362033362033
(1506958024.463499) can0 46C#2936203336203338
(1506958024.485465) can0 46C#2A20333820333820
(1506958024.507438) can0 46C#2B33383437203437
(1506958027.049109) can0 46C#10000053C0000000
(1506958027.071042) can0 46C#2007446973745075
(1506958027.093061) can0 46C#2162000000432028
(1506958027.115067) can0 46C#2231363830292033
(1506958027.137028) can0 46C#2336203336203338
(1506958027.159042) can0 46C#2420333820333820
(1506958027.181030) can0 46C#2533382033362033
(1506958027.203060) can0 46C#2636203336203336
(1506958027.225129) can0 46C#2720333820333820
(1506958027.247008) can0 46C#2833362033362033
(1506958027.269011) can0 46C#2936203336203338
(1506958027.291006) can0 46C#2A20333820333820
(1506958027.313038) can0 46C#2B33383437203437
(1506958029.854635) can0 46C#10000053C0000000
(1506958029.876586) can0 46C#2007446973745075
(1506958029.898578) can0 46C#2162000000432028
(1506958029.920580) can0 46C#2231373030292033
(1506958029.942581) can0 46C#2335203335203338
(1506958029.964549) can0 46C#2420333820333820
(1506958029.986553) can0 46C#2533382033382033
(1506958030.008588) can0 46C#2638203336203336
(1506958030.030501) can0 46C#2720333620333620
(1506958030.052544) can0 46C#2833362033362033
(1506958030.074532) can0 46C#2938203338203338
(1506958030.096525) can0 46C#2A20333820333620
(1506958030.118521) can0 46C#2B33363437203437
(1506958032.660106) can0 46C#10000053C0000000
(1506958032.682066) can0 46C#2007446973745075
(1506958032.704047) can0 46C#2162000000432028
(1506958032.726046) can0 46C#2231373230292033
(1506958032.748036) can0 46C#2335203335203338
(1506958032.770022) can0 46C#2420333820333820
(1506958032.792138) can0 46C#2533362033362033
(1506958032.814114) can0 46C#2636203336203336
(1506958032.836076) can0 46C#2720333620333620
(1506958032.858044) can0 46C#2833362033362033
(1506958032.880028) can0 46C#2936203336203336
(1506958032.902029) can0 46C#2A20333620333620
(1506958032.924000) can0 46C#2B33363437203437
(1506958035.444627) can0 46C#10000053C0000000
(1506958035.466596) can0 46C#2007446973745075
(1506958035.488553) can0 46C#2162000000432028
(1506958035.510532) can0 46C#2231373430292033
(1506958035.532566) can0 46C#2336203338203338
(1506958035.554550) can0 46C#2420333820333620
(1506958035.576546) can0 46C#2533362033362033
(1506958035.598537) can0 46C#2636203338203338
(1506958035.620587) can0 46C#2720333620333620
(1506958035.642558) can0 46C#2833362033362033
(1506958035.664513) can0 46C#2936203336203336
(1506958035.686514) can0 46C#2A20333620333620
(1506958035.708520) can0 46C#2B33363437203437
(1506958038.292083) can0 46C#10000053C0000000
(1506958038.314033) can0 46C#2007446973745075
(1506958038.336055) can0 46C#2162000000432028
(1506958038.358034) can0 46C#2231373630292033
(1506958038.379988) can0 46C#2338203338203336
(1506958038.401977) can0 46C#2420333620333620
(1506958038.424009) can0 46C#2533362033382033
(1506958038.445998) can0 46C#2638203336203336
(1506958038.467954) can0 46C#2720333620333620
(1506958038.489973) can0 46C#2833362033362033
(1506958038.511975) can0 46C#2936203336203336
(1506958038.533971) can0 46C#2A20333620333820
(1506958038.555946) can0 46C#2B33383437203437
(1506958041.076575) can0 46C#10000053C0000000
(1506958041.098533) can0 46C#2007446973745075
(1506958041.120508) can0 46C#2162000000432028
(1506958041.142552) can0 46C#2231373830292033
(1506958041.164483) can0 46C#2335203335203336
(1506958041.186499) can0 46C#2420333820333820
(1506958041.208480) can0 46C#2533362033362033
(1506958041.230509) can0 46C#2636203336203338
(1506958041.252506) can0 46C#2720333820333820
(150