(1506956808.098958) can0 46C#10000067C0000000
(1506956808.120890) can0 46C#2007446973745075
(1506956808.142885) can0 46C#2162000000572028
(1506956808.164887) can0 46C#2233393830292031
(1506956808.186886) can0 46C#2338312031383120
(1506956808.208877) can0 46C#2431373620313736
(1506956808.230851) can0 46C#2520313736203137
(1506956808.252919) can0 46C#2636203137362031
(1506956808.274907) can0 46C#2737362031373520
(1506956808.296932) can0 46C#2831373520313736
(1506956808.318947) can0 46C#2920313736203137
(1506956808.340857) can0 46C#2A36203137362031
(1506956808.362862) can0 46C#2B37362031373520
(1506956808.384841) can0 46C#2C31373620313736
(1506956808.406839) can0 46C#2D20313735203137
(1506956808.428859) can0 46C#2E35300000000000
(1506956811.075462) can0 46C#10000067C0000000
(1506956811.097429) can0 46C#2007446973745075
(1506956811.119410) can0 46C#2162000000572028
(1506956811.141400) can0 46C#2234303030292031
(1506956811.163451) can0 46C#2337342031373620
(1506956811.185400) can0 46C#2431373620313736
(1506956811.207449) can0 46C#2520313735203137
(1506956811.229412) can0 46C#2635203137362031
(1506956811.251410) can0 46C#2737362031373720
(1506956811.273547) can0 46C#2831373720313736
(1506956811.295443) can0 46C#2920313736203137
(1506956811.317419) can0 46C#2A36203137352031
(1506956811.339383) can0 46C#2B37352031373520
(1506956811.361431) can0 46C#2C31373520313735
(1506956811.383389) can0 46C#2D20313736203137
(1506956811.405402) can0 46C#2E36300000000000
(1506956814.072946) can0 46C#10000067C0000000
(1506956814.094921) can0 46C#2007446973745075
(1506956814.116907) can0 46C#2162000000572028
(1506956814.138888) can0 46C#2234303230292031
(1506956814.160920) can0 46C#2337362031373620
(1506956814.182901) can0 46C#2431373620313736
(1506956814.204973) can0 46C#2520313736203137
(1506956814.226947) can0 46C#2636203137362031
(1506956814.248928) can0 46C#2737362031373620
(1506956814.270902) can0 46C#2831373620313736
(1506956814.292867) can0 46C#2920313738203137
(1506956814.314873) can0 46C#2A36203137362031
(1506956814.336860) can0 46C#2B37362031373620
(1506956814.358873) can0 46C#2C31373520313735
(1506956814.380904) can0 46C#2D20313736203137
(1506956814.402890) can0 46C#2E36300000000000
(1506956817.049557) can0 46C#10000067C0000000
(1506956817.071501) can0 46C#2007446973745075
(1506956817.093554) can0 46C#2162000000572028
(1506956817.115529) can0 46C#2234303430292031
(1506956817.137508) can0 46C#2338312031383120
(1506956817.159496) can0 46C#2431373620313736
(1506956817.181467) can0 46C#2520313736203137
(1506956817.203500) can0 46C#2636203137362031
(1506956817.225492) can0 46C#2737362031373520
(1506956817.247470) can0 46C#2831373620313736
(1506956817.269502) can0 46C#2920313735203137
(1506956817.291485) can0 46C#2A36203137362031
(1506956817.313445) can0 46C#2B37362031373620
(1506956817.335493) can0 46C#2C31373520313735
(1506956817.357464) can0 46C#2D20313735203137
(1506956817.379484) can0 46C#2E35300000000000
(1506956820.026087) can0 46C#10000067C0000000
(1506956820.048044) can0 46C#2007446973745075
(1506956820.070081) can0 46C#2162000000572028
(1506956820.092048) can0 46C#2234303630292031
(1506956820.114048) can0 46C#2338312031383120
(1506956820.136062) can0 46C#2431373520313735
(1506956820.158052) can0 46C#2520313735203137
(1506956820.180026) can0 46C#2635203137352031
(1506956820.202012) can0 46C#2737362031373620
(1506956820.224049) can0 46C#2831373520313735
(1506956820.246115) can0 46C#2920313735203137
(1506956820.268013) can0 46C#2A35203137352031
(1506956820.290025) can0 46C#2B37362031373620
(1506956820.312009) can0 46C#2C31373720313736
(1506956820.334003) can0 46C#2D20313735203137
(1506956820.356007) can0 46C#2E35300000000000
(1506956823.023558) can0 46C#10000067C0000000
(1506956823.045498) can0 46C#2007446973745075
(1506956823.067521) can0 46C#2162000000572028
(1506956823.089463) can0 46C#2234303830292031
(1506956823.111453) can0 46C#2338312031383120
(1506956823.133410) can0 46C#2431373620313736
(1506956823.155458) can0 46C#2520313736203137
(1506956823.177461) can0 46C#2636203137362031
(1506956823.199399) can0 46C#2737362031373620
(1506956823.221402) can0 46C#2831373620313736
(1506956823.243452) can0 46C#2920313736203137
(1506956823.265555) can0 46C#2A36203137362031
(1506956823.287422) can0 46C#2B37362031373620
(1506956823.309394) can0 46C#2C31373620313737
(1506956823.331405) can0 46C#2D20313737203137
(1506956823.353404) can0 46C#2E37300000000000
(1506956826.042078) can0 46C#10000067C0000000
(1506956826.064089) can0 46C#2007446973745075
(1506956826.086025) can0 46C#2162000000572028
(1506956826.108014) can0 46C#2234313030292031
(1506956826.130001) can0 46C#2338312031383120
(1506956826.151989) can0 46C#2431373820313736
(1506956826.174006) can0 46C#2520313736203137
(1506956826.196034) can0 46C#2635203137352031
(1506956826.218023) can0 46C#2737362031373620
(1506956826.240018) can0 46C#2831373620313736
(1506956826.262072) can0 46C#2920313736203137
(1506956826.284052) can0 46C#2A36203137362031
(1506956826.306009) can0 46C#2B37352031373620
(1506956826.328004) can0 46C#2C31373620313736
(1506956826.350063) can0 46C#2D20313736203137
(1506956826.372024) can0 46C#2E37300000000000
(1506956829.039665) can0 46C#10000067C0000000
(1506956829.061625) can0 46C#2007446973745075
(1506956829.083616) can0 46C#2162000000572028
(1506956829.105621) can0 46C#2234313230292031
(1506956829.127595) can0 46C#2338312031373620
(1506956829.149649) can0 46C#2431373620313736
(1506956829.171705) can0 46C#2520313735203137
(1506956829.193623) can0 46C#2635203137362031
(1506956829.215591) can0 46C#2737362031373620
(1506956829.237587) can0 46C#2831373620313736
(1506956829.259574) can0 46C#2920313736203137
(1506956829.281577) can0 46C#2A36203137352031
(1506956829.303592) can0 46C#2B37362031373620
(1506956829.325542) can0 46C#2C31373520313735
(1506956829.347535) can0 46C#2D20313737203137
(1506956829.369586) can0 46C#2E35300000000000
(1506956832.016230) can0 46C#10000067C0000000
(1506956832.038158) can0 46C#2007446973745075
(1506956832.060173) can0 46C#2162000000572028
(1506956832.082177) can0 46C#2234313430292031
(1506956832.104206) can0 46C#2337342031373420
(1506956832.126223) can0 46C#2431373520313735
(1506956832.148199) can0 46C#2520313736203137
(1506956832.170192) can0 46C#2636203137362031
(1506956832.192147) can0 46C#2737362031373620
(1506956832.214143) can0 46C#2831373620313736
(1506956832.236140) can0 46C#2920313736203137
(1506956832.258105) can0 46C#2A36203137362031
(1506956832.280114) can0 46C#2B37362031373620
(1506956832.302109) can0 46C#2C31373620313735
(1506956832.324152) can0 46C#2D20313735203137
(1506956832.346236) can0 46C#2E35300000000000
(1506956835.013759) can0 46C#10000067C0000000
(1506956835.035712) can0 46C#2007446973745075
(1506956835.057744) can0 46C#2162000000572028
(1506956835.079726) can0 46C#2234313630292031
(1506956835.101711) can0 46C#2338312031383120
(1506956835.123711) can0 46C#2431373620313736
(1506956835.145701) can0 46C#2520313735203137
(1506956835.167686) can0 46C#2635203137362031
(1506956835.189694) can0 46C#2737362031373620
(1506956835.211725) can0 46C#2831373820313735
(1506956835.233719) can0 46C#2920313735203137
(1506956835.255784) can0 46C#2A36203137362031
(1506956835.277693) can0 46C#2B37362031373620
(1506956835.299680) can0 46C#2C31373620313737
(1506956835.321664) can0 46C#2D20313735203137
(1506956835.343694) can0 46C#2E35300000000000
(1506956837.990232) can0 46C#10000067C0000000
(1506956838.012238) can0 46C#2007446973745075
(1506956838.034236) can0 46C#2162000000572028
(1506956838.056214) can0 46C#2234313830292031
(1506956838.078207) can0 46C#2338312031383120
(1506956838.100166) can0 46C#2431373620313736
(1506956838.122201) can0 46C#2520313736203137
(1506956838.144180) can0 46C#2636203137362031
(1506956838.166162) can0 46C#2737382031373820
(1506956838.188156) can0 46C#2831373520313736
(1506956838.210151) can0 46C#2920313736203137
(1506956838.232192) can0 46C#2A37203137372031
(1506956838.254171) can0 46C#2B37362031373520
(1506956838.276150) can0 46C#2C31373520313736
(1506956838.298144) can0 46C#2D20313736203137
(1506956838.320163) can0 46C#2E36300000000000
(1506956840.966773) can0 46C#10000067C0000000
(1506956840.988736) can0 46C#2007446973745075
(1506956841.010715) can0 46C#2162000000572028
(1506956841.032695) can0 46C#2234323030292031
(1506956841.054693) can0 46C#2338312031383120
(1506956841.076694) can0 46C#2431373620313736
(1506956841.098691) can0 46C#2520313736203137
(1506956841.120702) can0 46C#2635203137352031
(1506956841.142688) can0 46C#2737362031373620
(1506956841.164671) can0 46C#2831373620313736
(1506956841.186712) can0 46C#2920313736203137
(1506956841.208746) can0 46C#2A36203137362031
(1506956841.230710) can0 46C#2B37362031373620
(1506956841.252684) can0 46C#2C31373620313736
(1506956841.274718) can0 46C#2D20313736203137
(1506956841.296690) can0 46C#2E36300000000000
(1506956843.964336) can0 46C#10000067C0000000
(1506956843.986288) can0 46C#2007446973745075
(1506956844.008276) can0 46C#2162000000572028
(1506956844.030284) can0 46C#2234323230292031
(1506956844.052254) can0 46C#2338312031383120
(1506956844.074241) can0 46C#2431373620313736
(1506956844.096248) can0 46C#2520313736203137
(1506956844.118384) can0 46C#2636203137362031
(1506956844.140292) can0 46C#2737362031373620
(1506956844.162259) can0 46C#2831373620313736
(1506956844.184256) can0 46C#2920313736203137
(1506956844.206254) can0 46C#2A36203137362031
(1506956844.228235) can0 46C#2B37362031373620
(1506956844.250233) can0 46C#2C31373620313736
(1506956844.272219) can0 46C#2D20313737203137
(1506956844.294242) can0 46C#2E37300000000000
